Index       TIME              V(WE)            V(WL15)           V(BL7)            V(BLB7)      V(XSRAM_6T_CORE_16X8:XSRAM_6T_CELL_15_7:Q) V(XSRAM_6T_CORE_16X8:XSRAM_6T_CELL_15_7:QB) V(GATED_CLK_BAR)       V(DIN0)         V(DIN_DFF0)         V(W_EN)           V(RBL)       V(RBL_DELAY_BAR) 
0        0.00000000e+00    1.00000000e+00    1.17908108e-05    0.00000000e+00    1.00000000e+00    0.00000000e+00    1.00000000e+00    9.99996064e-01    0.00000000e+00    0.00000000e+00    2.06934366e-05    0.00000000e+00    1.39344201e-05
1        1.00000000e-11    3.06503654e-01    1.35815483e-05    8.51847598e-06    9.99992170e-01    4.49443714e-06    9.99989369e-01    9.99604281e-01    0.00000000e+00    1.17416318e-05   -8.63147547e-05    1.25250639e-05   -3.58622800e-05
2        2.00000000e-11    4.95238234e-02    1.17697056e-05    1.20578189e-05    9.99987586e-01    4.56302533e-06    9.99988947e-01    9.98754026e-01    0.00000000e+00    9.69650701e-06    1.92330016e-04    1.58266291e-05   -6.43493387e-05
3        3.00000000e-11    4.55875217e-03    1.11998941e-05    8.89136419e-06    9.99976805e-01    4.58228314e-06    9.99988953e-01    9.99366353e-01    0.00000000e+00   -2.62330664e-07    1.41944700e-04    1.69125032e-05    2.41685111e-04
4        4.00000000e-11    1.00377440e-04    1.13295152e-05    7.28643833e-06    9.99966269e-01    4.59082217e-06    9.99988962e-01    9.99595223e-01    0.00000000e+00    2.06389771e-06    5.35695255e-05    1.75012842e-05    1.35192471e-04
5        5.00000000e-11    2.15787354e-05    1.14580207e-05    7.72712654e-06    9.99957261e-01    4.58595087e-06    9.99988958e-01    9.99642969e-01    0.00000000e+00    3.89293779e-05    2.74694791e-05    1.76324423e-05    5.13665571e-05
6        6.00000000e-11    1.81561165e-05    1.14752101e-05    8.23883799e-06    9.99948626e-01    4.58530901e-06    9.99988957e-01    9.99399778e-01    0.00000000e+00    1.07571714e-05    2.25627066e-05    1.76968126e-05   -1.17723093e-05
7        7.00000000e-11    3.33612205e-05    1.14586518e-05    8.51592471e-06    9.99940031e-01    4.58520614e-06    9.99988956e-01    9.99621418e-01    0.00000000e+00    4.00118659e-05    2.10420111e-05    1.76846657e-05    8.93581793e-05
8        8.00000000e-11    2.75241507e-05    1.14587708e-05    8.67749480e-06    9.99931487e-01    4.58563162e-06    9.99988957e-01    9.99786269e-01    0.00000000e+00    1.40170673e-05    2.04720182e-05    1.76949181e-05    8.42237706e-05
9        9.00000000e-11    2.26114233e-05    1.14525440e-05    8.75495396e-06    9.99922931e-01    4.58554456e-06    9.99988957e-01    9.99886146e-01    0.00000000e+00    8.18635201e-06    2.04063075e-05    1.76968342e-05    6.06109923e-05
10       1.00000000e-10    1.93758868e-05    1.14512994e-05    8.79529605e-06    9.99914387e-01    4.58570934e-06    9.99988957e-01    9.99937908e-01    0.00000000e+00    8.75427496e-06    2.04619592e-05    1.76978006e-05    4.26493484e-05
11       1.10000000e-10    1.73375172e-05    1.14491421e-05    8.81427345e-06    9.99905839e-01    4.58557187e-06    9.99988957e-01    9.99968215e-01    0.00000000e+00    1.00756346e-05    2.04727050e-05    1.76974012e-05    3.08969363e-05
12       1.20000000e-10    1.62357167e-05    1.14485947e-05    8.82423332e-06    9.99897293e-01    4.58561671e-06    9.99988957e-01    9.99983907e-01    0.00000000e+00    1.10608611e-05    2.04779665e-05    1.76975363e-05    2.45807870e-05
13       1.30000000e-10    1.56317555e-05    1.14489030e-05    8.82939988e-06    9.99888749e-01    4.58575845e-06    9.99988957e-01    9.99991830e-01    0.00000000e+00    1.18674139e-05    2.04803128e-05    1.76979555e-05    2.11543178e-05
14       1.40000000e-10    1.54692506e-05    1.14486892e-05    8.83015028e-06    9.99880206e-01    4.58571684e-06    9.99988957e-01    9.99993928e-01    0.00000000e+00    1.21603688e-05    2.04764877e-05    1.76979319e-05    2.02466196e-05
15       1.50000000e-10    1.53537935e-05    1.14484198e-05    8.83043004e-06    9.99871662e-01    4.58565570e-06    9.99988957e-01    9.99995406e-01    0.00000000e+00    1.23985878e-05    2.04720049e-05    1.76978611e-05    1.96073561e-05
16       1.60000000e-10    1.52383363e-05    1.14481503e-05    8.83070981e-06    9.99863118e-01    4.58559456e-06    9.99988957e-01    9.99996883e-01    0.00000000e+00    1.26368067e-05    2.04675220e-05    1.76977903e-05    1.89680926e-05
17       1.70000000e-10    1.51671730e-05    1.14480704e-05    8.83099115e-06    9.99854576e-01    4.58558116e-06    9.99988957e-01    9.99997693e-01    0.00000000e+00    1.27843695e-05    2.04657890e-05    1.76977925e-05    1.85956635e-05
18       1.80000000e-10    1.51610268e-05    1.14482687e-05    8.83127482e-06    9.99846036e-01    4.58563786e-06    9.99988957e-01    9.99997523e-01    0.00000000e+00    1.27988622e-05    2.04680922e-05    1.76979020e-05    1.86149091e-05
19       1.90000000e-10    1.51548806e-05    1.14484670e-05    8.83155849e-06    9.99837495e-01    4.58569455e-06    9.99988957e-01    9.99997353e-01    0.00000000e+00    1.28133549e-05    2.04703954e-05    1.76980115e-05    1.86341547e-05
20       2.00000000e-10    1.51487344e-05    1.14486653e-05    8.83184216e-06    9.99828955e-01    4.58575125e-06    9.99988957e-01    9.99997183e-01    0.00000000e+00    1.28278476e-05    2.04726985e-05    1.76981210e-05    1.86534002e-05
21       2.10000000e-10    1.51382745e-05    1.14485653e-05    8.83167608e-06    9.99820417e-01    4.58572307e-06    9.99988957e-01    9.99997188e-01    0.00000000e+00    1.28344285e-05    2.04714546e-05    1.76980632e-05    1.86195268e-05
22       2.20000000e-10    1.51273709e-05    1.14484346e-05    8.83146374e-06    9.99811879e-01    4.58568616e-06    9.99988957e-01    9.99997212e-01    0.00000000e+00    1.28401956e-05    2.04698458e-05    1.76979881e-05    1.85801892e-05
23       2.30000000e-10    1.51164673e-05    1.14483039e-05    8.83125140e-06    9.99803340e-01    4.58564925e-06    9.99988957e-01    9.99997235e-01    0.00000000e+00    1.28459627e-05    2.04682370e-05    1.76979130e-05    1.85408517e-05
24       2.40000000e-10    1.51055637e-05    1.14481732e-05    8.83103906e-06    9.99794802e-01    4.58561233e-06    9.99988957e-01    9.99997258e-01    0.00000000e+00    1.28517298e-05    2.04666282e-05    1.76978379e-05    1.85015141e-05
25       2.50000000e-10    1.50946601e-05    1.14480425e-05    8.83082671e-06    9.99786264e-01    4.58557542e-06    9.99988957e-01    9.99997281e-01    0.00000000e+00    1.28574969e-05    2.04650194e-05    1.76977629e-05    1.84621766e-05
26       2.60000000e-10    1.50823775e-05    1.14481285e-05    8.83098591e-06    9.99777729e-01    4.58560346e-06    9.99988957e-01    9.99997249e-01    0.00000000e+00    1.28552795e-05    2.04660204e-05    1.76978206e-05    1.84323219e-05
27       2.70000000e-10    1.50699530e-05    1.14482368e-05    8.83118332e-06    9.99769195e-01    4.58563817e-06    9.99988957e-01    9.99997213e-01    0.00000000e+00    1.28522407e-05    2.04672898e-05    1.76978920e-05    1.84034427e-05
28       2.80000000e-10    1.50575286e-05    1.14483452e-05    8.83138074e-06    9.99760661e-01    4.58567288e-06    9.99988957e-01    9.99997176e-01    0.00000000e+00    1.28492020e-05    2.04685593e-05    1.76979634e-05    1.83745635e-05
29       2.90000000e-10    1.50451041e-05    1.14484535e-05    8.83157815e-06    9.99752126e-01    4.58570760e-06    9.99988957e-01    9.99997140e-01    0.00000000e+00    1.28461632e-05    2.04698287e-05    1.76980348e-05    1.83456842e-05
30       3.00000000e-10    1.50326796e-05    1.14485618e-05    8.83177557e-06    9.99743592e-01    4.58574231e-06    9.99988957e-01    9.99997103e-01    0.00000000e+00    1.28431244e-05    2.04710982e-05    1.76981062e-05    1.83168050e-05
31       3.10000000e-10    1.50237200e-05    1.14484729e-05    8.83163032e-06    9.99735060e-01    4.58571599e-06    9.99988957e-01    9.99997117e-01    0.00000000e+00    1.28444897e-05    2.04700323e-05    1.76980516e-05    1.82859222e-05
32       3.20000000e-10    1.50151167e-05    1.14483637e-05    8.83144983e-06    9.99726529e-01    4.58568339e-06    9.99988957e-01    9.99997136e-01    0.00000000e+00    1.28463079e-05    2.04687263e-05    1.76979841e-05    1.82548333e-05
33       3.30000000e-10    1.50065135e-05    1.14482545e-05    8.83126934e-06    9.99717998e-01    4.58565079e-06    9.99988957e-01    9.99997155e-01    0.00000000e+00    1.28481262e-05    2.04674202e-05    1.76979165e-05    1.82237444e-05
34       3.40000000e-10    1.49979102e-05    1.14481453e-05    8.83108885e-06    9.99709466e-01    4.58561819e-06    9.99988957e-01    9.99997174e-01    0.00000000e+00    1.28499444e-05    2.04661142e-05    1.76978489e-05    1.81926555e-05
35       3.50000000e-10    1.49893070e-05    1.14480360e-05    8.83090836e-06    9.99700935e-01    4.58558560e-06    9.99988957e-01    9.99997193e-01    0.00000000e+00    1.28517627e-05    2.04648082e-05    1.76977814e-05    1.81615666e-05
36       3.60000000e-10    1.49780561e-05    1.14481064e-05    8.83104080e-06    9.99692407e-01    4.58561028e-06    9.99988957e-01    9.99997161e-01    0.00000000e+00    1.28512033e-05    2.04656328e-05    1.76978329e-05    1.81344768e-05
37       3.70000000e-10    1.49665328e-05    1.14481953e-05    8.83120543e-06    9.99683879e-01    4.58564085e-06    9.99988957e-01    9.99997123e-01    0.00000000e+00    1.28503994e-05    2.04666766e-05    1.76978967e-05    1.81077983e-05
38       3.80000000e-10    1.49550095e-05    1.14482842e-05    8.83137006e-06    9.99675352e-01    4.58567142e-06    9.99988957e-01    9.99997085e-01    0.00000000e+00    1.28495955e-05    2.04677204e-05    1.76979604e-05    1.80811199e-05
39       3.90000000e-10    1.49434863e-05    1.14483731e-05    8.83153469e-06    9.99666824e-01    4.58570199e-06    9.99988957e-01    9.99997048e-01    0.00000000e+00    1.28487915e-05    2.04687643e-05    1.76980242e-05    1.80544415e-05
40       4.00000000e-10    1.49319630e-05    1.14484620e-05    8.83169932e-06    9.99658296e-01    4.58573256e-06    9.99988957e-01    9.99997010e-01    0.00000000e+00    1.28479876e-05    2.04698081e-05    1.76980879e-05    1.80277630e-05
41       4.10000000e-10    1.49246914e-05    1.14483872e-05    8.83157866e-06    9.99649772e-01    4.58570945e-06    9.99988957e-01    9.99997028e-01    0.00000000e+00    1.28478410e-05    2.04689183e-05    1.76980394e-05    1.80017425e-05
42       4.20000000e-10    1.49178572e-05    1.14482956e-05    8.83142866e-06    9.99641247e-01    4.58568081e-06    9.99988957e-01    9.99997051e-01    0.00000000e+00    1.28477620e-05    2.04678295e-05    1.76979793e-05    1.79757897e-05
43       4.30000000e-10    1.49110230e-05    1.14482041e-05    8.83127865e-06    9.99632722e-01    4.58565218e-06    9.99988957e-01    9.99997075e-01    0.00000000e+00    1.28476830e-05    2.04667408e-05    1.76979192e-05    1.79498369e-05
44       4.40000000e-10    1.49041887e-05    1.14481125e-05    8.83112865e-06    9.99624198e-01    4.58562354e-06    9.99988957e-01    9.99997099e-01    0.00000000e+00    1.28476040e-05    2.04656521e-05    1.76978592e-05    1.79238841e-05
45       4.50000000e-10    1.48973545e-05    1.14480209e-05    8.83097864e-06    9.99615673e-01    4.58559491e-06    9.99988957e-01    9.99997122e-01    0.00000000e+00    1.28475250e-05    2.04645634e-05    1.76977991e-05    1.78979313e-05
46       4.60000000e-10    1.48867152e-05    1.14480796e-05    8.83109108e-06    9.99607152e-01    4.58561697e-06    9.99988957e-01    9.99997087e-01    0.00000000e+00    1.28482763e-05    2.04652659e-05    1.76978457e-05    1.78727733e-05
47       4.70000000e-10    1.48756845e-05    1.14481539e-05    8.83123051e-06    9.99598631e-01    4.58564426e-06    9.99988957e-01    9.99997047e-01    0.00000000e+00    1.28491130e-05    2.04661528e-05    1.76979033e-05    1.78476971e-05
48       4.80000000e-10    1.48646539e-05    1.14482281e-05    8.83136994e-06    9.99590110e-01    4.58567154e-06    9.99988957e-01    9.99997006e-01    0.00000000e+00    1.28499497e-05    2.04670396e-05    1.76979608e-05    1.78226209e-05
49       4.90000000e-10    1.48536232e-05    1.14483023e-05    8.83150937e-06    9.99581589e-01    4.58569883e-06    9.99988957e-01    9.99996965e-01    0.00000000e+00    1.28507865e-05    2.04679264e-05    1.76980184e-05    1.77975447e-05
50       5.00000000e-10    1.48425925e-05    1.14483765e-05    8.83164880e-06    9.99573068e-01    4.58572611e-06    9.99988957e-01    9.99996925e-01    0.00000000e+00    1.28516232e-05    2.04688132e-05    1.76980760e-05    1.77724685e-05
51       5.10000000e-10    1.45349274e-05    1.14485289e-05    8.82951675e-06    9.99564546e-01    4.58575096e-06    9.99988957e-01    9.99996737e-01    2.00000000e-01    4.80742264e-06    2.03719911e-05    1.76982190e-05    1.77504583e-05
52       5.20000000e-10    1.40773159e-05    1.14476112e-05    8.82655282e-06    9.99556021e-01    4.58560910e-06    9.99988957e-01    9.99996400e-01    4.00000000e-01   -3.83085963e-05    2.02100214e-05    1.76977904e-05    1.77237232e-05
53       5.30000000e-10    1.22611830e-05    1.14475243e-05    8.81549715e-06    9.99547479e-01    4.58586366e-06    9.99988957e-01    9.99994847e-01    6.00000000e-01   -1.56452750e-04    1.96226353e-05    1.76983512e-05    1.76855767e-05
54       5.40000000e-10    1.65332425e-05    1.14513992e-05    8.86091446e-06    9.99539032e-01    4.58558144e-06    9.99988957e-01    9.99999373e-01    8.00000000e-01   -8.83027029e-05    2.09764281e-05    1.76980080e-05    1.77584560e-05
55       5.50000000e-10    2.64077461e-05    1.14266040e-05    8.82531745e-06    9.99530471e-01    4.58308640e-06    9.99988955e-01    1.00000196e+00    1.00000000e+00    3.77462973e-04    2.29603198e-05    1.76878960e-05    1.75467825e-05
56       5.60000000e-10    2.81026556e-06    1.14693263e-05    8.83468224e-06    9.99521989e-01    4.58746950e-06    9.99988959e-01    9.99992544e-01    1.00000000e+00   -1.43937834e-04    1.85653368e-05    1.77073717e-05    1.76171638e-05
57       5.70000000e-10    2.77247067e-05    1.13979325e-05    8.67269535e-06    9.99513164e-01    4.58603781e-06    9.99988957e-01    9.99994668e-01    1.00000000e+00    3.91746137e-04    2.08821957e-05    1.76836441e-05    1.72703147e-05
58       5.80000000e-10    1.21828051e-05    1.14530687e-05    8.82759541e-06    9.99504949e-01    4.58520396e-06    9.99988957e-01    9.99995653e-01    1.00000000e+00   -1.40075298e-05    1.93063092e-05    1.76993435e-05    1.76318112e-05
59       5.90000000e-10    1.32210103e-05    1.14495859e-05    8.83333233e-06    9.99496413e-01    4.58600742e-06    9.99988957e-01    9.99996410e-01    1.00000000e+00   -3.80836891e-05    2.01000637e-05    1.76983014e-05    1.75831514e-05
60       6.00000000e-10    1.32586123e-05    1.14454268e-05    8.82374459e-06    9.99487884e-01    4.58554877e-06    9.99988957e-01    9.99995790e-01    1.00000000e+00   -6.41501483e-05    2.01237315e-05    1.76969783e-05    1.75163938e-05
61       6.10000000e-10    1.51982628e-05    1.14455008e-05    8.83028255e-06    9.99479386e-01    4.58552598e-06    9.99988957e-01    9.99996868e-01    1.00000000e+00   -1.94539601e-05    2.05593870e-05    1.76969020e-05    1.75039953e-05
62       6.20000000e-10    1.52524973e-05    1.14505059e-05    8.84304942e-06    9.99470900e-01    4.58567221e-06    9.99988957e-01    9.99997545e-01    1.00000000e+00   -3.07917200e-05    2.05789828e-05    1.76985603e-05    1.75478744e-05
63       6.30000000e-10    1.52366539e-05    1.14475969e-05    8.83189709e-06    9.99462370e-01    4.58576616e-06    9.99988957e-01    9.99997076e-01    1.00000000e+00    4.05807980e-06    2.06268732e-05    1.76979234e-05    1.74796070e-05
64       6.40000000e-10    1.48661164e-05    1.14481945e-05    8.83169942e-06    9.99453863e-01    4.58562752e-06    9.99988957e-01    9.99997052e-01    1.00000000e+00    1.16182053e-05    2.05483575e-05    1.76980033e-05    1.74728922e-05
65       6.50000000e-10    1.47790389e-05    1.14476543e-05    8.82947265e-06    9.99445350e-01    4.58565693e-06    9.99988957e-01    9.99996952e-01    1.00000000e+00    1.28218770e-05    2.04861271e-05    1.76978384e-05    1.74485693e-05
66       6.60000000e-10    1.47267792e-05    1.14484509e-05    8.83127366e-06    9.99436843e-01    4.58568743e-06    9.99988957e-01    9.99996931e-01    1.00000000e+00    1.30834959e-05    2.04752789e-05    1.76980666e-05    1.74322420e-05
67       6.70000000e-10    1.47087037e-05    1.14485256e-05    8.83163424e-06    9.99428335e-01    4.58568452e-06    9.99988957e-01    9.99996915e-01    1.00000000e+00    1.31043729e-05    2.04690562e-05    1.76980793e-05    1.74132506e-05
68       6.80000000e-10    1.47099761e-05    1.14481918e-05    8.83117956e-06    9.99419827e-01    4.58566270e-06    9.99988957e-01    9.99996900e-01    1.00000000e+00    1.29889937e-05    2.04654516e-05    1.76979700e-05    1.73927512e-05
69       6.90000000e-10    1.47112484e-05    1.14478579e-05    8.83072488e-06    9.99411318e-01    4.58564088e-06    9.99988957e-01    9.99996885e-01    1.00000000e+00    1.28736145e-05    2.04618469e-05    1.76978608e-05    1.73722518e-05
70       7.00000000e-10    1.47124489e-05    1.14475274e-05    8.83027548e-06    9.99402810e-01    4.58561930e-06    9.99988957e-01    9.99996870e-01    1.00000000e+00    1.27592188e-05    2.04582813e-05    1.76977528e-05    1.73517735e-05
71       7.10000000e-10    1.47035678e-05    1.14476699e-05    8.83056611e-06    9.99394307e-01    4.58563118e-06    9.99988957e-01    9.99996868e-01    1.00000000e+00    1.27827491e-05    2.04602022e-05    1.76978026e-05    1.73342538e-05
72       7.20000000e-10    1.46946868e-05    1.14478124e-05    8.83085674e-06    9.99385804e-01    4.58564307e-06    9.99988957e-01    9.99996866e-01    1.00000000e+00    1.28062794e-05    2.04621232e-05    1.76978525e-05    1.73167341e-05
73       7.30000000e-10    1.46858057e-05    1.14479549e-05    8.83114737e-06    9.99377300e-01    4.58565496e-06    9.99988957e-01    9.99996864e-01    1.00000000e+00    1.28298097e-05    2.04640442e-05    1.76979023e-05    1.72992144e-05
74       7.40000000e-10    1.46769246e-05    1.14480974e-05    8.83143800e-06    9.99368797e-01    4.58566684e-06    9.99988957e-01    9.99996862e-01    1.00000000e+00    1.28533400e-05    2.04659651e-05    1.76979522e-05    1.72816947e-05
75       7.50000000e-10    1.46680435e-05    1.14482399e-05    8.83172863e-06    9.99360294e-01    4.58567873e-06    9.99988957e-01    9.99996860e-01    1.00000000e+00    1.28768703e-05    2.04678861e-05    1.76980021e-05    1.72641751e-05
76       7.60000000e-10    1.46591624e-05    1.14483824e-05    8.83201926e-06    9.99351791e-01    4.58569062e-06    9.99988957e-01    9.99996858e-01    1.00000000e+00    1.29004005e-05    2.04698070e-05    1.76980519e-05    1.72466554e-05
77       7.70000000e-10    1.46502814e-05    1.14485249e-05    8.83230989e-06    9.99343288e-01    4.58570250e-06    9.99988957e-01    9.99996856e-01    1.00000000e+00    1.29239308e-05    2.04717280e-05    1.76981018e-05    1.72291357e-05
78       7.80000000e-10    1.46448845e-05    1.14484804e-05    8.83222740e-06    9.99334788e-01    4.58569890e-06    9.99988957e-01    9.99996851e-01    1.00000000e+00    1.29189831e-05    2.04711489e-05    1.76980890e-05    1.72120231e-05
79       7.90000000e-10    1.46406860e-05    1.14483717e-05    8.83201657e-06    9.99326290e-01    4.58568997e-06    9.99988957e-01    9.99996843e-01    1.00000000e+00    1.29042409e-05    2.04697099e-05    1.76980546e-05    1.71950505e-05
80       8.00000000e-10    1.46364875e-05    1.14482630e-05    8.83180574e-06    9.99317792e-01    4.58568105e-06    9.99988957e-01    9.99996836e-01    1.00000000e+00    1.28894987e-05    2.04682710e-05    1.76980203e-05    1.71780779e-05
81       8.10000000e-10    1.46322891e-05    1.14481543e-05    8.83159492e-06    9.99309293e-01    4.58567212e-06    9.99988957e-01    9.99996829e-01    1.00000000e+00    1.28747565e-05    2.04668320e-05    1.76979859e-05    1.71611053e-05
