Index       TIME             V(CLK)          V(CLK_BUF)        V(CLK_BAR)          V(CSB)           V(CS_BAR)           V(CS)            V(WEB)           V(WE_BAR)           V(WE)       V(GATED_CLK_BUF)  V(GATED_CLK_BAR)      V(WL_EN)           V(RWL)             V(A0)           V(A_DFF0)           V(A1)           V(A_DFF1)           V(A2)           V(A_DFF2)           V(A3)           V(A_DFF3)          V(RBL)         V(RBL_DELAY)    V(RBL_DELAY_BAR)       V(W_EN)           V(PRE)            V(S_EN)           V(WL15)           V(BL7)            V(BLB7)      V(XSRAM_6T_CORE_16X8:XSRAM_6T_CELL_15_7:Q) V(XSRAM_6T_CORE_16X8:XSRAM_6T_CELL_15_7:QB)     V(SA_Q7)          V(SA_QB7)          V(DIN0)         V(DIN_DFF0)         V(OUT)      
0        0.00000000e+00    0.00000000e+00    5.05136986e-05    9.99997703e-01    0.00000000e+00    1.00000000e+00    1.14240069e-05    1.00000000e+00    6.28087630e-06    1.00000000e+00    6.01630342e-06    7.16014221e-06    1.78129081e-05    5.74148658e-06    0.00000000e+00    0.00000000e+00    0.00000000e+00    0.00000000e+00    0.00000000e+00    0.00000000e+00    0.00000000e+00    0.00000000e+00    0.00000000e+00    9.99994011e-01    9.26755166e-06    1.56797120e-05    9.99995741e-01    2.56207661e-05    7.35425376e-06    0.00000000e+00    1.00000000e+00    0.00000000e+00    1.00000000e+00    0.00000000e+00    1.00000000e+00    0.00000000e+00    0.00000000e+00    0.00000000e+00
1        1.00000000e-11    0.00000000e+00    1.68958977e-04    9.99993429e-01    2.00000000e-01    9.99996663e-01    1.16966110e-05    1.00000000e+00    4.20850463e-01    3.16866804e-01    6.48376216e-06    4.56223113e-04    1.81255213e-05    5.95280801e-06    0.00000000e+00    1.33449709e-05    0.00000000e+00    1.35427355e-05    0.00000000e+00    1.40284473e-05    0.00000000e+00    1.05755593e-05    1.36726355e-05    1.00066600e+00    2.28410475e-04   -3.27530637e-05    1.00000821e+00    4.98834216e-04    1.57111290e-05    5.34984473e-05    1.00006213e+00    3.20428249e-06    9.99992914e-01    8.67257908e-05    1.00005069e+00    0.00000000e+00    8.98234858e-06    1.44568516e-05
2        2.00000000e-11    0.00000000e+00   -2.17532401e-05    9.99997407e-01    4.00000000e-01    9.99998346e-01    1.52087327e-05    1.00000000e+00    9.93666816e-01    5.46906516e-02    6.18167841e-06   -4.36970381e-04    1.99370522e-05    6.00535643e-06    0.00000000e+00    1.51951723e-05    0.00000000e+00    1.53381145e-05    0.00000000e+00    1.59545714e-05    0.00000000e+00    9.67428740e-06    1.86622376e-05    9.99583108e-01    1.78537671e-04    1.02088668e-04    9.99983420e-01   -1.06351880e-04    1.20414739e-07    1.03788080e-05    9.99926782e-01    3.30737029e-06    9.99992685e-01    2.96652287e-05    9.99945087e-01    0.00000000e+00    6.83018154e-06    1.57059020e-05
3        3.00000000e-11    0.00000000e+00   -1.74432938e-03    9.99901101e-01    6.00000000e-01    9.99997348e-01    7.17780600e-06    1.00000000e+00    9.99418186e-01    4.28857793e-03    3.94247143e-06   -2.47606043e-05    1.78877439e-05    5.94087113e-06    0.00000000e+00    8.48559773e-06    0.00000000e+00    8.52456358e-06    0.00000000e+00    9.17643793e-06    0.00000000e+00    4.75654589e-07    3.28498779e-05    9.99851018e-01    1.03021953e-04    8.79615890e-05    9.99999919e-01   -1.21102876e-04    9.75001241e-06    2.27716370e-05    9.99979696e-01    3.17311134e-06    9.99992624e-01    6.59889356e-05    9.99986994e-01    0.00000000e+00   -3.83666779e-06    1.53366996e-05
4        4.00000000e-11    0.00000000e+00   -5.30657406e-03    9.99855755e-01    8.00000000e-01    9.99997652e-01    6.40864405e-06    1.00000000e+00    9.99974795e-01    1.58721008e-04    5.65206629e-06    5.56547264e-06    1.76142115e-05    5.89348704e-06    0.00000000e+00    8.03005241e-06    0.00000000e+00    8.13835351e-06    0.00000000e+00    8.83185984e-06    0.00000000e+00    2.04385688e-06    4.31282864e-05    9.99972513e-01    1.39850505e-05    3.72539145e-05    9.99997744e-01   -4.26788790e-05    8.89572719e-06    3.91636906e-05    9.99996696e-01    3.11512470e-06    9.99992550e-01    1.03243726e-04    9.99997957e-01    0.00000000e+00    3.28724551e-08    1.50623294e-05
5        5.00000000e-11    0.00000000e+00   -7.29666861e-03    9.99998342e-01    1.00000000e+00    9.99998719e-01    1.80807637e-05    1.00000000e+00    9.99985795e-01    1.35595839e-05    1.11369596e-05    7.61637466e-06    1.77618543e-05    5.90563521e-06    0.00000000e+00    2.97614117e-05    0.00000000e+00    3.01527061e-05    0.00000000e+00    3.08718034e-05    0.00000000e+00    3.04048449e-05    5.35048812e-05    9.99991615e-01    6.78851883e-06    2.09279647e-05    9.99996474e-01   -1.96542722e-06    8.21521857e-06    5.31279303e-05    9.99995936e-01    3.13475379e-06    9.99992569e-01    1.34215404e-04    9.99997122e-01    0.00000000e+00    3.25501013e-05    1.50868420e-05
6        6.00000000e-11    0.00000000e+00   -6.77012185e-03    9.99994294e-01    1.00000000e+00    9.99997110e-01    3.26363625e-06    1.00000000e+00    9.99997275e-01    1.19456144e-05    4.15849523e-06    7.24889804e-06    1.78013146e-05    5.90829799e-06    0.00000000e+00    2.65857596e-05    0.00000000e+00    2.66707186e-05    0.00000000e+00    2.72953622e-05    0.00000000e+00    1.89808565e-05    6.40965623e-05    9.99993220e-01    6.33138421e-06    1.71880546e-05    9.99996346e-01    1.60114996e-05    8.11430729e-06    6.55812318e-05    9.99993746e-01    3.13826444e-06    9.99992573e-01    1.62873596e-04    9.99995515e-01    0.00000000e+00    1.33729770e-05    1.50980225e-05
7        7.00000000e-11    0.00000000e+00   -6.55084357e-03    1.00007273e+00    1.00000000e+00    9.99997491e-01    2.71338798e-05    1.00000000e+00    9.99997434e-01    1.31889193e-05    1.08775602e-05    7.97133205e-06    1.78105312e-05    5.90863143e-06    0.00000000e+00    2.93202636e-05    0.00000000e+00    2.95544711e-05    0.00000000e+00    3.03033917e-05    0.00000000e+00    2.61669976e-05    7.47181296e-05    9.99993545e-01    6.30565150e-06    1.65373049e-05    9.99996372e-01    2.51806136e-05    8.10533833e-06    7.73691943e-05    9.99992411e-01    3.13899351e-06    9.99992574e-01    1.90849807e-04    9.99994556e-01    0.00000000e+00    2.72221454e-05    1.51036188e-05
8        8.00000000e-11    0.00000000e+00   -4.21156585e-03    1.00006845e+00    1.00000000e+00    9.99998352e-01    6.75847667e-06    1.00000000e+00    9.99997376e-01    1.18171014e-05    4.96161296e-06    7.45643276e-06    1.78135358e-05    5.90877018e-06    0.00000000e+00    2.57495736e-05    0.00000000e+00    2.58002099e-05    0.00000000e+00    2.64397324e-05    0.00000000e+00    1.78117472e-05    8.53390609e-05    9.99993569e-01    6.33925469e-06    1.61412728e-05    9.99996403e-01    2.97065795e-05    8.10753015e-06    8.87584072e-05    9.99991706e-01    3.13938611e-06    9.99992574e-01    2.18490972e-04    9.99994051e-01    0.00000000e+00    1.26833200e-05    1.51063316e-05
9        9.00000000e-11    0.00000000e+00   -2.63893129e-03    1.00005178e+00    1.00000000e+00    9.99997083e-01    1.61841304e-05    1.00000000e+00    9.99997356e-01    1.22538385e-05    6.02640980e-06    7.61540163e-06    1.78120019e-05    5.90837372e-06    0.00000000e+00    1.76292571e-05    0.00000000e+00    1.76479713e-05    0.00000000e+00    1.83431361e-05    0.00000000e+00    9.33750077e-06    9.59547008e-05    9.99993584e-01    6.34425475e-06    1.60907016e-05    9.99996417e-01    3.20630945e-05    8.10767886e-06    9.99663669e-05    9.99991327e-01    3.13928362e-06    9.99992574e-01    2.45979288e-04    9.99993785e-01    0.00000000e+00    5.93801167e-06    1.51075078e-05
10       1.00000000e-10    0.00000000e+00   -1.61677267e-03    1.00002452e+00    1.00000000e+00    9.99997676e-01    1.16397785e-05    1.00000000e+00    9.99997367e-01    1.21562506e-05    5.13413199e-06    7.47522709e-06    1.78128760e-05    5.90864899e-06    0.00000000e+00    1.46977788e-05    0.00000000e+00    1.47537477e-05    0.00000000e+00    1.54317779e-05    0.00000000e+00    7.71558120e-06    1.06567245e-04    9.99993584e-01    6.38795881e-06    1.61200755e-05    9.99996429e-01    3.32759909e-05    8.11003633e-06    1.11075658e-04    9.99991135e-01    3.13976389e-06    9.99992574e-01    2.73385006e-04    9.99993644e-01    0.00000000e+00    4.72577698e-06    1.51083650e-05
11       1.10000000e-10    0.00000000e+00   -9.94574224e-04    1.00001833e+00    1.00000000e+00    9.99997622e-01    1.24322968e-05    1.00000000e+00    9.99997371e-01    1.22525157e-05    5.96360131e-06    7.61180188e-06    1.78131508e-05    5.90836540e-06    0.00000000e+00    1.54706731e-05    0.00000000e+00    1.55762625e-05    0.00000000e+00    1.62619937e-05    0.00000000e+00    9.42815069e-06    1.17174424e-04    9.99993594e-01    6.41406322e-06    1.61456240e-05    9.99996434e-01    3.38436313e-05    8.11004739e-06    1.22126054e-04    9.99991044e-01    3.13976617e-06    9.99992574e-01    3.00742855e-04    9.99993581e-01    0.00000000e+00    6.92679542e-06    1.51085705e-05
12       1.20000000e-10    0.00000000e+00   -6.25811054e-04    1.00001244e+00    1.00000000e+00    9.99997561e-01    1.24403441e-05    1.00000000e+00    9.99997368e-01    1.22473414e-05    6.15409305e-06    7.62049428e-06    1.78130383e-05    5.90825710e-06    0.00000000e+00    1.63332705e-05    0.00000000e+00    1.64560554e-05    0.00000000e+00    1.71412213e-05    0.00000000e+00    1.05360205e-05    1.27776357e-04    9.99993594e-01    6.44027642e-06    1.61472100e-05    9.99996436e-01    3.41181082e-05    8.10992100e-06    1.33145497e-04    9.99990999e-01    3.13991408e-06    9.99992574e-01    3.28074115e-04    9.99993550e-01    0.00000000e+00    8.06608993e-06    1.51087025e-05
13       1.30000000e-10    0.00000000e+00   -3.82694938e-04    1.00000499e+00    1.00000000e+00    9.99997550e-01    1.15071946e-05    1.00000000e+00    9.99997361e-01    1.21621458e-05    5.79846871e-06    7.52558715e-06    1.78127328e-05    5.90830590e-06    0.00000000e+00    1.69410729e-05    0.00000000e+00    1.70596409e-05    0.00000000e+00    1.77369612e-05    0.00000000e+00    1.09838456e-05    1.38375447e-04    9.99993589e-01    6.46803631e-06    1.61340607e-05    9.99996437e-01    3.42625798e-05    8.10990534e-06    1.44150440e-04    9.99990976e-01    3.14019364e-06    9.99992574e-01    3.55392689e-04    9.99993532e-01    0.00000000e+00    8.25155858e-06    1.51088430e-05
14       1.40000000e-10    0.00000000e+00   -1.55027683e-04    9.99998154e-01    1.00000000e+00    9.99997541e-01    1.06720237e-05    1.00000000e+00    9.99997355e-01    1.20842347e-05    5.48668413e-06    7.44116951e-06    1.78124663e-05    5.90834212e-06    0.00000000e+00    1.75217124e-05    0.00000000e+00    1.76363944e-05    0.00000000e+00    1.83067487e-05    0.00000000e+00    1.14173061e-05    1.48973396e-04    9.99993584e-01    6.49570246e-06    1.61223178e-05    9.99996438e-01    3.43962293e-05    8.10987265e-06    1.55153544e-04    9.99990954e-01    3.14046260e-06    9.99992574e-01    3.82709153e-04    9.99993515e-01    0.00000000e+00    8.44955550e-06    1.51089709e-05
15       1.50000000e-10    0.00000000e+00   -1.09447079e-04    9.99998640e-01    1.00000000e+00    9.99997565e-01    1.09916696e-05    1.00000000e+00    9.99997360e-01    1.20921820e-05    5.69161302e-06    7.48038537e-06    1.78126589e-05    5.90823022e-06    0.00000000e+00    1.77821997e-05    0.00000000e+00    1.78968943e-05    0.00000000e+00    1.85706511e-05    0.00000000e+00    1.16814579e-05    1.59557913e-04    9.99993587e-01    6.52226373e-06    1.61271511e-05    9.99996438e-01    3.44023251e-05    8.10963926e-06    1.66134974e-04    9.99990953e-01    3.14060666e-06    9.99992574e-01    4.10000749e-04    9.99993516e-01    0.00000000e+00    8.79521578e-06    1.51089493e-05
16       1.60000000e-10    0.00000000e+00   -6.38664740e-05    9.99999126e-01    1.00000000e+00    9.99997589e-01    1.13113156e-05    1.00000000e+00    9.99997364e-01    1.21001293e-05    5.89654191e-06    7.51960123e-06    1.78128515e-05    5.90811831e-06    0.00000000e+00    1.80426870e-05    0.00000000e+00    1.81573942e-05    0.00000000e+00    1.88345535e-05    0.00000000e+00    1.19456098e-05    1.70142429e-04    9.99993591e-01    6.54882501e-06    1.61319844e-05    9.99996438e-01    3.44084209e-05    8.10940587e-06    1.77116405e-04    9.99990952e-01    3.14075071e-06    9.99992574e-01    4.37292345e-04    9.99993516e-01    0.00000000e+00    9.14087607e-06    1.51089278e-05
17       1.70000000e-10    0.00000000e+00   -1.82858693e-05    9.99999612e-01    1.00000000e+00    9.99997612e-01    1.16309616e-05    1.00000000e+00    9.99997369e-01    1.21080765e-05    6.10147080e-06    7.55881709e-06    1.78130442e-05    5.90800641e-06    0.00000000e+00    1.83031743e-05    0.00000000e+00    1.84178940e-05    0.00000000e+00    1.90984559e-05    0.00000000e+00    1.22097616e-05    1.80726945e-04    9.99993594e-01    6.57538628e-06    1.61368176e-05    9.99996438e-01    3.44145168e-05    8.10917249e-06    1.88097835e-04    9.99990952e-01    3.14089477e-06    9.99992574e-01    4.64583941e-04    9.99993516e-01    0.00000000e+00    9.48653636e-06    1.51089062e-05
18       1.80000000e-10    0.00000000e+00    2.72947354e-05    1.00000010e+00    1.00000000e+00    9.99997636e-01    1.19506075e-05    1.00000000e+00    9.99997373e-01    1.21160238e-05    6.30639969e-06    7.59803295e-06    1.78132368e-05    5.90789451e-06    0.00000000e+00    1.85636616e-05    0.00000000e+00    1.86783939e-05    0.00000000e+00    1.93623583e-05    0.00000000e+00    1.24739135e-05    1.91311462e-04    9.99993597e-01    6.60194755e-06    1.61416509e-05    9.99996438e-01    3.44206126e-05    8.10893910e-06    1.99079265e-04    9.99990951e-01    3.14103882e-06    9.99992574e-01    4.91875537e-04    9.99993516e-01    0.00000000e+00    9.83219664e-06    1.51088847e-05
19       1.90000000e-10    0.00000000e+00    6.89390975e-05    1.00000046e+00    1.00000000e+00    9.99997655e-01    1.22204871e-05    1.00000000e+00    9.99997377e-01    1.21201218e-05    6.48073520e-06    7.63063070e-06    1.78133980e-05    5.90778998e-06    0.00000000e+00    1.87958516e-05    0.00000000e+00    1.89104244e-05    0.00000000e+00    1.95972872e-05    0.00000000e+00    1.27066970e-05    2.01894475e-04    9.99993600e-01    6.62824066e-06    1.61456433e-05    9.99996439e-01    3.44258960e-05    8.10870223e-06    2.10059213e-04    9.99990951e-01    3.14118900e-06    9.99992574e-01    5.19165159e-04    9.99993516e-01    0.00000000e+00    1.01334036e-05    1.51088665e-05
20       2.00000000e-10    0.00000000e+00    6.41892847e-05    9.99999309e-01    1.00000000e+00    9.99997624e-01    1.19038006e-05    1.00000000e+00    9.99997372e-01    1.20788508e-05    6.29448452e-06    7.58522464e-06    1.78131882e-05    5.90777240e-06    0.00000000e+00    1.86945173e-05    0.00000000e+00    1.88069034e-05    0.00000000e+00    1.94907224e-05    0.00000000e+00    1.25697596e-05    2.12459778e-04    9.99993597e-01    6.65137310e-06    1.61397240e-05    9.99996438e-01    3.44216031e-05    8.10842436e-06    2.21021682e-04    9.99990951e-01    3.14141139e-06    9.99992574e-01    5.46431503e-04    9.99993516e-01    0.00000000e+00    9.91066501e-06    1.51088883e-05
21       2.10000000e-10    0.00000000e+00    5.94394719e-05    9.99998163e-01    1.00000000e+00    9.99997592e-01    1.15871140e-05    1.00000000e+00    9.99997367e-01    1.20375797e-05    6.10823384e-06    7.53981857e-06    1.78129784e-05    5.90775483e-06    0.00000000e+00    1.85931830e-05    0.00000000e+00    1.87033823e-05    0.00000000e+00    1.93841575e-05    0.00000000e+00    1.24328222e-05    2.23025081e-04    9.99993594e-01    6.67450555e-06    1.61338048e-05    9.99996438e-01    3.44173103e-05    8.10814648e-06    2.31984151e-04    9.99990951e-01    3.14163377e-06    9.99992574e-01    5.73697847e-04    9.99993516e-01    0.00000000e+00    9.68792644e-06    1.51089101e-05
22       2.20000000e-10    0.00000000e+00    5.46896591e-05    9.99997017e-01    1.00000000e+00    9.99997560e-01    1.12704274e-05    1.00000000e+00    9.99997362e-01    1.19963087e-05    5.92198316e-06    7.49441250e-06    1.78127687e-05    5.90773725e-06    0.00000000e+00    1.84918488e-05    0.00000000e+00    1.85998612e-05    0.00000000e+00    1.92775927e-05    0.00000000e+00    1.22958848e-05    2.33590384e-04    9.99993591e-01    6.69763799e-06    1.61278855e-05    9.99996437e-01    3.44130175e-05    8.10786861e-06    2.42946621e-04    9.99990952e-01    3.14185615e-06    9.99992574e-01    6.00964192e-04    9.99993516e-01    0.00000000e+00    9.46518787e-06    1.51089319e-05
23       2.30000000e-10    0.00000000e+00    4.99398463e-05    9.99995871e-01    1.00000000e+00    9.99997528e-01    1.09537408e-05    1.00000000e+00    9.99997357e-01    1.19550377e-05    5.73573247e-06    7.44900644e-06    1.78125589e-05    5.90771968e-06    0.00000000e+00    1.83905145e-05    0.00000000e+00    1.84963402e-05    0.00000000e+00    1.91710279e-05    0.00000000e+00    1.21589475e-05    2.44155686e-04    9.99993588e-01    6.72077043e-06    1.61219663e-05    9.99996437e-01    3.44087247e-05    8.10759074e-06    2.53909090e-04    9.99990952e-01    3.14207854e-06    9.99992574e-01    6.28230536e-04    9.99993516e-01    0.00000000e+00    9.24244930e-06    1.51089537e-05
24       2.40000000e-10    0.00000000e+00    4.56543947e-05    9.99994901e-01    1.00000000e+00    9.99997502e-01    1.06846968e-05    1.00000000e+00    9.99997353e-01    1.19176935e-05    5.57783628e-06    7.41005784e-06    1.78123829e-05    5.90769557e-06    0.00000000e+00    1.83030574e-05    0.00000000e+00    1.84070616e-05    0.00000000e+00    1.90791648e-05    0.00000000e+00    1.20417010e-05    2.54719498e-04    9.99993585e-01    6.74389812e-06    1.61169660e-05    9.99996436e-01    3.44047016e-05    8.10731906e-06    2.64870324e-04    9.99990952e-01    3.14229538e-06    9.99992574e-01    6.55495041e-04    9.99993516e-01    0.00000000e+00    9.05246221e-06    1.51089723e-05
25       2.50000000e-10    0.00000000e+00    4.68420961e-05    9.99996015e-01    1.00000000e+00    9.99997541e-01    1.09771871e-05    1.00000000e+00    9.99997359e-01    1.19266331e-05    5.75413777e-06    7.44721963e-06    1.78126052e-05    5.90759443e-06    0.00000000e+00    1.83791630e-05    0.00000000e+00    1.84856507e-05    0.00000000e+00    1.91605819e-05    0.00000000e+00    1.21565397e-05    2.65265741e-04    9.99993589e-01    6.76696976e-06    1.61227972e-05    9.99996436e-01    3.44038579e-05    8.10712030e-06    2.75816991e-04    9.99990953e-01    3.14244692e-06    9.99992574e-01    6.82737861e-04    9.99993517e-01    0.00000000e+00    9.24849755e-06    1.51089524e-05
26       2.60000000e-10    0.00000000e+00    4.80297974e-05    9.99997128e-01    1.00000000e+00    9.99997580e-01    1.12696775e-05    1.00000000e+00    9.99997364e-01    1.19355727e-05    5.93043926e-06    7.48438143e-06    1.78128275e-05    5.90749330e-06    0.00000000e+00    1.84552685e-05    0.00000000e+00    1.85642399e-05    0.00000000e+00    1.92419991e-05    0.00000000e+00    1.22713785e-05    2.75811984e-04    9.99993592e-01    6.79004140e-06    1.61286284e-05    9.99996437e-01    3.44030142e-05    8.10692155e-06    2.86763658e-04    9.99990954e-01    3.14259846e-06    9.99992574e-01    7.09980681e-04    9.99993518e-01    0.00000000e+00    9.44453289e-06    1.51089326e-05
