Index       TIME             V(CLK)          V(CLK_BUF)        V(CLK_BAR)          V(CSB)           V(CS_BAR)           V(CS)            V(WEB)           V(WE_BAR)           V(WE)       V(GATED_CLK_BUF)  V(GATED_CLK_BAR)      V(WL_EN)           V(RWL)             V(A0)           V(A_DFF0)           V(A1)           V(A_DFF1)           V(A2)           V(A_DFF2)           V(A3)           V(A_DFF3)          V(RBL)         V(RBL_DELAY)    V(RBL_DELAY_BAR)       V(W_EN)           V(PRE)            V(S_EN)           V(WL15)           V(BL7)            V(BLB7)      V(XSRAM_6T_CORE_16X8:XSRAM_6T_CELL_15_7:Q) V(XSRAM_6T_CORE_16X8:XSRAM_6T_CELL_15_7:QB)     V(SA_Q7)          V(SA_QB7)          V(OUT)      
0        0.00000000e+00    0.00000000e+00    3.05437590e-05    9.99995931e-01    0.00000000e+00    1.00000000e+00    1.49152233e-05    0.00000000e+00    1.05708259e-05    1.00000000e+00    1.02782226e-05    1.15265317e-05    2.30755529e-05    1.00095223e-05    0.00000000e+00    0.00000000e+00    0.00000000e+00    0.00000000e+00    0.00000000e+00    0.00000000e+00    0.00000000e+00    0.00000000e+00    0.00000000e+00    9.99991888e-01    1.38353009e-05    9.65379144e-06    9.99993937e-01    3.16845955e-05    1.15800874e-05    0.00000000e+00    9.99996901e-01    0.00000000e+00    1.00000000e+00    0.00000000e+00    1.00000000e+00    2.37761603e-05
1        1.00000000e-11    0.00000000e+00    2.02964784e-04    9.99981550e-01    2.00000000e-01    9.99993750e-01    1.25409911e-05    0.00000000e+00    4.95948812e-01    2.99618989e-01    1.00994612e-05    6.14280313e-04    2.24934986e-05    1.02371196e-05    0.00000000e+00    1.59193784e-05    0.00000000e+00    1.61397576e-05    0.00000000e+00    1.66159463e-05    0.00000000e+00    1.29221035e-05    1.95744512e-05    1.00078643e+00    3.61313853e-04    3.49020057e-04    1.00000874e+00    6.04998357e-04    2.19929678e-05    7.91275019e-05    1.00007671e+00    4.51553415e-06    9.99987216e-01    1.15674742e-04    1.00005982e+00    2.41723143e-05
2        2.00000000e-11    0.00000000e+00   -3.43867223e-04    9.99968613e-01    4.00000000e-01    9.99995642e-01    1.84220342e-05    0.00000000e+00    9.94388971e-01    4.40076202e-02    9.95508911e-06   -2.93815063e-04    2.55838085e-05    1.04107075e-05    0.00000000e+00    1.65793134e-05    0.00000000e+00    1.67120011e-05    0.00000000e+00    1.73175256e-05    0.00000000e+00    1.01142975e-05    3.01892554e-05    9.99595905e-01    2.62918486e-04    1.90111595e-04    9.99987465e-01   -1.32237127e-04    7.29346198e-06    2.33652470e-05    9.99924803e-01    4.90651383e-06    9.99987097e-01    6.12253742e-05    9.99945805e-01    2.50352002e-05
3        3.00000000e-11    0.00000000e+00   -3.77457700e-03    9.99829240e-01    6.00000000e-01    9.99995376e-01    7.63913264e-06    0.00000000e+00    9.99552614e-01    3.52638927e-03    6.97095570e-06   -1.13753354e-05    2.30271007e-05    1.02763948e-05    0.00000000e+00    6.17192817e-06    0.00000000e+00    6.16836833e-06    0.00000000e+00    6.81521130e-06    0.00000000e+00   -3.41061807e-06    4.87231760e-05    9.99879918e-01    9.47534114e-05    3.28550931e-05    9.99999010e-01   -9.45934365e-05    1.49097616e-05    4.99055793e-05    9.99983122e-01    4.57889451e-06    9.99986823e-01    1.19191822e-04    9.99988571e-01    2.39277451e-05
4        4.00000000e-11    0.00000000e+00   -9.19349304e-03    9.99796275e-01    8.00000000e-01    9.99996035e-01    8.38961879e-06    0.00000000e+00    9.99988302e-01    1.80557855e-05    1.12755063e-05    1.20705509e-05    2.28820871e-05    1.02328987e-05    0.00000000e+00    9.44709221e-06    0.00000000e+00    9.60942744e-06    0.00000000e+00    1.03208773e-05    0.00000000e+00    4.31022202e-06    6.39373374e-05    9.99985818e-01    3.88254984e-06    9.16458483e-06    9.99995663e-01   -1.82175841e-05    1.34483057e-05    7.70136223e-05    9.99996074e-01    4.54176549e-06    9.99986768e-01    1.72465220e-04    9.99996988e-01    2.37205282e-05
5        5.00000000e-11    0.00000000e+00   -9.43684278e-03    1.00012391e+00    1.00000000e+00    9.99997207e-01    2.69473533e-05    0.00000000e+00    9.99988656e-01    1.31331510e-05    1.98079156e-05    1.25078122e-05    2.30487769e-05    1.02576633e-05    0.00000000e+00    5.31523732e-05    0.00000000e+00    5.38100146e-05    0.00000000e+00    5.45155375e-05    0.00000000e+00    5.90372031e-05    7.95521500e-05    9.99990648e-01    8.85800626e-06    9.30229569e-06    9.99994978e-01    1.53702297e-05    1.29536710e-05    1.00364600e-04    9.99992400e-01    4.56980488e-06    9.99986799e-01    2.19134540e-04    9.99994257e-01    2.37566461e-05
6        6.00000000e-11    0.00000000e+00   -8.48467590e-03    9.99927748e-01    1.00000000e+00    9.99996945e-01    8.51340206e-06    0.00000000e+00    9.99995471e-01    1.60098821e-05    4.60943431e-06    1.20349460e-05    2.30726299e-05    1.02568798e-05    0.00000000e+00    1.85034586e-05    0.00000000e+00    1.82630484e-05    0.00000000e+00    1.88636899e-05    0.00000000e+00    1.79633353e-06    9.53255811e-05    9.99990842e-01    8.54933427e-06    9.66607121e-06    9.99995050e-01    3.11344937e-05    1.29438296e-05    1.22146210e-04    9.99990218e-01    4.57033496e-06    9.99986799e-01    2.64385054e-04    9.99992684e-01    2.37671193e-05
7        7.00000000e-11    0.00000000e+00   -5.14771726e-03    1.00018444e+00    1.00000000e+00    9.99992514e-01    1.38046685e-05    0.00000000e+00    9.99995034e-01    1.68583689e-05    1.01007661e-05    1.11841353e-05    2.30663661e-05    1.02566471e-05    0.00000000e+00    4.93779121e-05    0.00000000e+00    4.96839034e-05    0.00000000e+00    5.02745487e-05    0.00000000e+00    4.81766151e-05    1.11085455e-04    9.99990779e-01    8.54833632e-06    9.63673692e-06    9.99995080e-01    3.90785406e-05    1.29396871e-05    1.43155300e-04    9.99989093e-01    4.57126096e-06    9.99986799e-01    3.09065068e-04    9.99991873e-01    2.37715999e-05
8        8.00000000e-11    0.00000000e+00   -2.09430878e-03    1.00007244e+00    1.00000000e+00    9.99995953e-01    1.55558001e-05    0.00000000e+00    9.99995447e-01    1.67947057e-05    8.41391831e-06    1.22469264e-05    2.30763197e-05    1.02563080e-05    0.00000000e+00    2.09483945e-05    0.00000000e+00    2.08237704e-05    0.00000000e+00    2.14907923e-05    0.00000000e+00    8.25172987e-06    1.26832523e-04    9.99990918e-01    8.70642395e-06    9.64707938e-06    9.99995112e-01    4.30309984e-05    1.29377956e-05    1.63763556e-04    9.99988533e-01    4.57209209e-06    9.99986799e-01    3.53450937e-04    9.99991470e-01    2.37737449e-05
9        9.00000000e-11    0.00000000e+00   -8.27531575e-04    1.00002826e+00    1.00000000e+00    9.99995614e-01    1.66817434e-05    0.00000000e+00    9.99995420e-01    1.72013143e-05    9.42344717e-06    1.22263151e-05    2.30752969e-05    1.02561904e-05    0.00000000e+00    1.45134409e-05    0.00000000e+00    1.45068968e-05    0.00000000e+00    1.52026807e-05    0.00000000e+00    5.72034791e-06    1.42564931e-04    9.99990918e-01    8.79587125e-06    9.65211665e-06    9.99995122e-01    4.49962269e-05    1.29364222e-05    1.84162833e-04    9.99988254e-01    4.57293472e-06    9.99986799e-01    3.97682304e-04    9.99991269e-01    2.37748530e-05
10       1.00000000e-10    0.00000000e+00   -3.33832104e-04    1.00001005e+00    1.00000000e+00    9.99995610e-01    1.58791206e-05    0.00000000e+00    9.99995412e-01    1.72128454e-05    9.88048739e-06    1.22093215e-05    2.30754463e-05    1.02559631e-05    0.00000000e+00    1.59213325e-05    0.00000000e+00    1.60079206e-05    0.00000000e+00    1.66948499e-05    0.00000000e+00    9.21882599e-06    1.58280305e-04    9.99990921e-01    8.88621079e-06    9.65188664e-06    9.99995127e-01    4.59383749e-05    1.29351946e-05    2.04443388e-04    9.99988120e-01    4.57375721e-06    9.99986799e-01    4.41823717e-04    9.99991173e-01    2.37753699e-05
11       1.10000000e-10    0.00000000e+00   -6.09729966e-05    9.99999569e-01    1.00000000e+00    9.99995726e-01    1.50852720e-05    0.00000000e+00    9.99995415e-01    1.71299165e-05    1.01757435e-05    1.21863315e-05    2.30755635e-05    1.02557566e-05    0.00000000e+00    1.90947997e-05    0.00000000e+00    1.92496456e-05    0.00000000e+00    1.99226547e-05    0.00000000e+00    1.34977949e-05    1.73989627e-04    9.99990923e-01    8.97457081e-06    9.65587282e-06    9.99995130e-01    4.65731011e-05    1.29340307e-05    2.24687183e-04    9.99988029e-01    4.57458669e-06    9.99986799e-01    4.85937087e-04    9.99991108e-01    2.37757281e-05
12       1.20000000e-10    0.00000000e+00    2.70400904e-05    9.99996142e-01    1.00000000e+00    9.99995737e-01    1.48543510e-05    0.00000000e+00    9.99995415e-01    1.70513124e-05    1.02715480e-05    1.21684419e-05    2.30755889e-05    1.02555468e-05    0.00000000e+00    2.07068328e-05    0.00000000e+00    2.08709180e-05    0.00000000e+00    2.15401126e-05    0.00000000e+00    1.51317533e-05    1.89671848e-04    9.99990924e-01    9.05775786e-06    9.65598667e-06    9.99995131e-01    4.68268365e-05    1.29329217e-05    2.44862522e-04    9.99987994e-01    4.57540368e-06    9.99986799e-01    5.29994133e-04    9.99991082e-01    2.37758713e-05
13       1.30000000e-10    0.00000000e+00    2.82336555e-05    9.99996028e-01    1.00000000e+00    9.99995699e-01    1.48878291e-05    0.00000000e+00    9.99995414e-01    1.69747395e-05    1.02736729e-05    1.21529479e-05    2.30755712e-05    1.02553355e-05    0.00000000e+00    2.15854826e-05    0.00000000e+00    2.17310870e-05    0.00000000e+00    2.24012137e-05    0.00000000e+00    1.55233882e-05    2.05341338e-04    9.99990925e-01    9.13851524e-06    9.65428175e-06    9.99995131e-01    4.69016258e-05    1.29318387e-05    2.65005708e-04    9.99987983e-01    4.57621482e-06    9.99986799e-01    5.74024725e-04    9.99991075e-01    2.37759136e-05
14       1.40000000e-10    0.00000000e+00    2.94272205e-05    9.99995914e-01    1.00000000e+00    9.99995661e-01    1.49213072e-05    0.00000000e+00    9.99995413e-01    1.68981667e-05    1.02757979e-05    1.21374539e-05    2.30755534e-05    1.02551242e-05    0.00000000e+00    2.24641325e-05    0.00000000e+00    2.25912559e-05    0.00000000e+00    2.32623147e-05    0.00000000e+00    1.59150231e-05    2.21010829e-04    9.99990926e-01    9.21927262e-06    9.65257683e-06    9.99995131e-01    4.69764152e-05    1.29307556e-05    2.85148894e-04    9.99987973e-01    4.57702595e-06    9.99986799e-01    6.18055316e-04    9.99991068e-01    2.37759558e-05
15       1.50000000e-10    0.00000000e+00    3.06207855e-05    9.99995801e-01    1.00000000e+00    9.99995623e-01    1.49547852e-05    0.00000000e+00    9.99995412e-01    1.68215938e-05    1.02779229e-05    1.21219599e-05    2.30755356e-05    1.02549129e-05    0.00000000e+00    2.33427823e-05    0.00000000e+00    2.34514249e-05    0.00000000e+00    2.41234158e-05    0.00000000e+00    1.63066581e-05    2.36680319e-04    9.99990927e-01    9.30002999e-06    9.65087191e-06    9.99995131e-01    4.70512045e-05    1.29296725e-05    3.05292079e-04    9.99987963e-01    4.57783708e-06    9.99986799e-01    6.62085908e-04    9.99991061e-01    2.37759980e-05
16       1.60000000e-10    0.00000000e+00    3.05924781e-05    9.99995803e-01    1.00000000e+00    9.99995632e-01    1.49528930e-05    0.00000000e+00    9.99995413e-01    1.67707984e-05    1.02791789e-05    1.21115823e-05    2.30755364e-05    1.02547043e-05    0.00000000e+00    2.34345141e-05    0.00000000e+00    2.35378428e-05    0.00000000e+00    2.42106659e-05    0.00000000e+00    1.63201358e-05    2.52316025e-04    9.99990927e-01    9.37495797e-06    9.65125166e-06    9.99995130e-01    4.70651180e-05    1.29286134e-05    3.25389926e-04    9.99987961e-01    4.57864942e-06    9.99986799e-01    7.06075064e-04    9.99991060e-01    2.37760099e-05
17       1.70000000e-10    0.00000000e+00    2.98779819e-05    9.99995871e-01    1.00000000e+00    9.99995666e-01    1.49311372e-05    0.00000000e+00    9.99995414e-01    1.67344794e-05    1.02799468e-05    1.21040781e-05    2.30755477e-05    1.02544973e-05    0.00000000e+00    2.30843221e-05    0.00000000e+00    2.31897315e-05    0.00000000e+00    2.38633306e-05    0.00000000e+00    1.61212451e-05    2.67932756e-04    9.99990928e-01    9.44661223e-06    9.65280215e-06    9.99995129e-01    4.70448442e-05    1.29275679e-05    3.45462310e-04    9.99987964e-01    4.57946245e-06    9.99986799e-01    7.50040951e-04    9.99991062e-01    2.37760047e-05
18       1.80000000e-10    0.00000000e+00    2.91634857e-05    9.99995939e-01    1.00000000e+00    9.99995701e-01    1.49093814e-05    0.00000000e+00    9.99995416e-01    1.66981605e-05    1.02807147e-05    1.20965739e-05    2.30755589e-05    1.02542904e-05    0.00000000e+00    2.27341302e-05    0.00000000e+00    2.28416203e-05    0.00000000e+00    2.35159954e-05    0.00000000e+00    1.59223543e-05    2.83549488e-04    9.99990929e-01    9.51826648e-06    9.65435264e-06    9.99995128e-01    4.70245705e-05    1.29265223e-05    3.65534694e-04    9.99987967e-01    4.58027547e-06    9.99986799e-01    7.94006837e-04    9.99991065e-01    2.37759995e-05
19       1.90000000e-10    0.00000000e+00    2.84489895e-05    9.99996007e-01    1.00000000e+00    9.99995736e-01    1.48876256e-05    0.00000000e+00    9.99995418e-01    1.66618415e-05    1.02814826e-05    1.20890697e-05    2.30755702e-05    1.02540834e-05    0.00000000e+00    2.23839383e-05    0.00000000e+00    2.24935090e-05    0.00000000e+00    2.31686601e-05    0.00000000e+00    1.57234636e-05    2.99166220e-04    9.99990930e-01    9.58992074e-06    9.65590313e-06    9.99995127e-01    4.70042967e-05    1.29254767e-05    3.85607078e-04    9.99987970e-01    4.58108849e-06    9.99986799e-01    8.37972724e-04    9.99991068e-01    2.37759943e-05
20       2.00000000e-10    0.00000000e+00    2.83766649e-05    9.99996014e-01    1.00000000e+00    9.99995734e-01    1.48869033e-05    0.00000000e+00    9.99995417e-01    1.66189958e-05    1.02807310e-05    1.20797325e-05    2.30755694e-05    1.02538763e-05    0.00000000e+00    2.23140451e-05    0.00000000e+00    2.24250910e-05    0.00000000e+00    2.31001212e-05    0.00000000e+00    1.56949928e-05    3.14747726e-04    9.99990931e-01    9.65659742e-06    9.65583205e-06    9.99995126e-01    4.69932121e-05    1.29244243e-05    4.05639214e-04    9.99987972e-01    4.58189552e-06    9.99986799e-01    8.81900390e-04    9.99991069e-01    2.37759920e-05
21       2.10000000e-10    0.00000000e+00    2.87318661e-05    9.99995979e-01    1.00000000e+00    9.99995708e-01    1.49001840e-05    0.00000000e+00    9.99995416e-01    1.65718051e-05    1.02789679e-05    1.20691749e-05    2.30755605e-05    1.02536691e-05    0.00000000e+00    2.24307610e-05    0.00000000e+00    2.25428788e-05    0.00000000e+00    2.32171909e-05    0.00000000e+00    1.57799792e-05    3.30305780e-04    9.99990931e-01    9.71996029e-06    9.65468141e-06    9.99995126e-01    4.69882451e-05    1.29233672e-05    4.25644553e-04    9.99987973e-01    4.58269854e-06    9.99986799e-01    9.25802611e-04    9.99991070e-01    2.37759916e-05
22       2.20000000e-10    0.00000000e+00    2.90870674e-05    9.99995945e-01    1.00000000e+00    9.99995682e-01    1.49134647e-05    0.00000000e+00    9.99995415e-01    1.65246143e-05    1.02772048e-05    1.20586174e-05    2.30755516e-05    1.02534620e-05    0.00000000e+00    2.25474768e-05    0.00000000e+00    2.26606667e-05    0.00000000e+00    2.33342607e-05    0.00000000e+00    1.58649656e-05    3.45863834e-04    9.99990932e-01    9.78332315e-06    9.65353076e-06    9.99995125e-01    4.69832782e-05    1.29223101e-05    4.45649893e-04    9.99987974e-01    4.58350157e-06    9.99986799e-01    9.69704832e-04    9.99991071e-01    2.37759912e-05
23       2.30000000e-10    0.00000000e+00    2.94422687e-05    9.99995911e-01    1.00000000e+00    9.99995656e-01    1.49267454e-05    0.00000000e+00    9.99995413e-01    1.64774235e-05    1.02754416e-05    1.20480598e-05    2.30755428e-05    1.02532548e-05    0.00000000e+00    2.26641927e-05    0.00000000e+00    2.27784545e-05    0.00000000e+00    2.34513304e-05    0.00000000e+00    1.59499519e-05    3.61421888e-04    9.99990933e-01    9.84668602e-06    9.65238012e-06    9.99995124e-01    4.69783112e-05    1.29212530e-05    4.65655232e-04    9.99987975e-01    4.58430460e-06    9.99986799e-01    1.01360705e-03    9.99991072e-01    2.37759908e-05
24       2.40000000e-10    0.00000000e+00    2.97974700e-05    9.99995877e-01    1.00000000e+00    9.99995630e-01    1.49400261e-05    0.00000000e+00    9.99995412e-01    1.64302328e-05    1.02736785e-05    1.20375023e-05    2.30755339e-05    1.02530476e-05    0.00000000e+00    2.27809085e-05    0.00000000e+00    2.28962424e-05    0.00000000e+00    2.35684002e-05    0.00000000e+00    1.60349383e-05    3.76979942e-04    9.99990934e-01    9.91004888e-06    9.65122948e-06    9.99995123e-01    4.69733443e-05    1.29201959e-05    4.85660572e-04    9.99987976e-01    4.58510763e-06    9.99986799e-01    1.05750927e-03    9.99991073e-01    2.37759904e-05
25       2.50000000e-10    0.00000000e+00    2.97984774e-05    9.99995877e-01    1.00000000e+00    9.99995634e-01    1.49385259e-05    0.00000000e+00    9.99995412e-01    1.63912074e-05    1.02743338e-05    1.20293668e-05    2.30755362e-05    1.02528414e-05    0.00000000e+00    2.27953530e-05    0.00000000e+00    2.29104216e-05    0.00000000e+00    2.35826302e-05    0.00000000e+00    1.60396925e-05    3.92499234e-04    9.99990934e-01    9.96881007e-06    9.65141433e-06    9.99995123e-01    4.69669454e-05    1.29191510e-05    5.05620513e-04    9.99987978e-01    4.58591037e-06    9.99986799e-01    1.10136856e-03    9.99991074e-01    2.37759909e-05
26       2.60000000e-10    0.00000000e+00    2.95636801e-05    9.99995900e-01    1.00000000e+00    9.99995659e-01    1.49271853e-05    0.00000000e+00    9.99995414e-01    1.63576181e-05    1.02765991e-05    1.20228437e-05    2.30755458e-05    1.02526358e-05    0.00000000e+00    2.27417104e-05    0.00000000e+00    2.28556232e-05    0.00000000e+00    2.35283946e-05    0.00000000e+00    1.59910320e-05    4.07992719e-04    9.99990935e-01    1.00245077e-05    9.65248829e-06    9.99995122e-01    4.69595932e-05    1.29181140e-05    5.25550229e-04    9.99987979e-01    4.58671291e-06    9.99986799e-01    1.14519926e-03    9.99991076e-01    2.37759918e-05
27       2.70000000e-10    0.00000000e+00    2.93288827e-05    9.99995922e-01    1.00000000e+00    9.99995683e-01    1.49158447e-05    0.00000000e+00    9.99995415e-01    1.63240288e-05    1.02788645e-05    1.20163207e-05    2.30755555e-05    1.02524302e-05    0.00000000e+00    2.26880677e-05    0.00000000e+00    2.28008249e-05    0.00000000e+00    2.34741591e-05    0.00000000e+00    1.59423715e-05    4.23486205e-04    9.99990936e-01    1.00802053e-05    9.65356225e-06    9.99995121e-01    4.69522410e-05    1.29170771e-05    5.45479945e-04    9.99987980e-01    4.58751546e-06    9.99986799e-01    1.18902996e-03    9.99991077e-01    2.37759928e-05
28       2.80000000e-10    0.00000000e+00    2.90940854e-05    9.99995945e-01    1.00000000e+00    9.99995708e-01    1.49045041e-05    0.00000000e+00    9.99995417e-01    1.62904396e-05    1.02811298e-05    1.20097976e-05    2.30755652e-05    1.02522246e-05    0.00000000e+00    2.26344251e-05    0.00000000e+00    2.27460266e-05    0.00000000e+00    2.34199235e-05    0.00000000e+00    1.58937110e-05    4.38979691e-04    9.99990937e-01    1.01359029e-05    9.65463621e-06    9.99995120e-01    4.69448888e-05    1.29160402e-05    5.65409662e-04    9.99987982e-01    4.58831801e-06    9.99986799e-01    1.23286066e-03    9.99991078e-01    2.37759938e-05
